Index       FREQ             VM(F2)         VM(OUT2_LO_P)     VM(OUT2_LO_N)     VM(OUT2_HI_N)     VM(OUT2_HI_P)  
0        1.00000000e+03    4.47165494e-01    1.50121770e-01    1.50524124e-01    5.06308418e-01    5.04955043e-01
1        1.00461579e+03    4.48814522e-01    1.50675379e-01    1.51079217e-01    5.08175550e-01    5.06817183e-01
2        1.00925289e+03    4.50466557e-01    1.51229998e-01    1.51635323e-01    5.10046086e-01    5.08682720e-01
3        1.01391139e+03    4.52121572e-01    1.51785617e-01    1.52192431e-01    5.11919996e-01    5.10551621e-01
4        1.01859139e+03    4.53779537e-01    1.52342227e-01    1.52750533e-01    5.13797247e-01    5.12423854e-01
5        1.02329299e+03    4.55440424e-01    1.52899817e-01    1.53309618e-01    5.15677805e-01    5.14299386e-01
6        1.02801630e+03    4.57104202e-01    1.53458379e-01    1.53869676e-01    5.17561638e-01    5.16178182e-01
7        1.03276141e+03    4.58770842e-01    1.54017901e-01    1.54430698e-01    5.19448710e-01    5.18060211e-01
8        1.03752842e+03    4.60440313e-01    1.54578373e-01    1.54992672e-01    5.21338989e-01    5.19945437e-01
9        1.04231743e+03    4.62112585e-01    1.55139786e-01    1.55555590e-01    5.23232439e-01    5.21833825e-01
10       1.04712855e+03    4.63787627e-01    1.55702129e-01    1.56119440e-01    5.25129025e-01    5.23725341e-01
11       1.05196187e+03    4.65465407e-01    1.56265391e-01    1.56684211e-01    5.27028711e-01    5.25619950e-01
12       1.05681751e+03    4.67145894e-01    1.56829561e-01    1.57249894e-01    5.28931463e-01    5.27517615e-01
13       1.06169556e+03    4.68829055e-01    1.57394630e-01    1.57816477e-01    5.30837242e-01    5.29418301e-01
14       1.06659612e+03    4.70514859e-01    1.57960586e-01    1.58383950e-01    5.32746013e-01    5.31321970e-01
15       1.07151931e+03    4.72203272e-01    1.58527417e-01    1.58952301e-01    5.34657739e-01    5.33228585e-01
16       1.07646521e+03    4.73894262e-01    1.59095114e-01    1.59521519e-01    5.36572382e-01    5.35138110e-01
17       1.08143395e+03    4.75587794e-01    1.59663664e-01    1.60091593e-01    5.38489904e-01    5.37050507e-01
18       1.08642562e+03    4.77283835e-01    1.60233057e-01    1.60662512e-01    5.40410267e-01    5.38965736e-01
19       1.09144034e+03    4.78982351e-01    1.60803280e-01    1.61234263e-01    5.42333431e-01    5.40883760e-01
20       1.09647820e+03    4.80683307e-01    1.61374323e-01    1.61806836e-01    5.44259359e-01    5.42804540e-01
21       1.10153931e+03    4.82386668e-01    1.61946173e-01    1.62380219e-01    5.46188010e-01    5.44728035e-01
22       1.10662378e+03    4.84092400e-01    1.62518818e-01    1.62954400e-01    5.48119344e-01    5.46654207e-01
23       1.11173173e+03    4.85800465e-01    1.63092248e-01    1.63529366e-01    5.50053322e-01    5.48583015e-01
24       1.11686325e+03    4.87510829e-01    1.63666449e-01    1.64105106e-01    5.51989902e-01    5.50514418e-01
25       1.12201845e+03    4.89223455e-01    1.64241409e-01    1.64681607e-01    5.53929043e-01    5.52448376e-01
26       1.12719746e+03    4.90938307e-01    1.64817117e-01    1.65258858e-01    5.55870704e-01    5.54384847e-01
27       1.13240036e+03    4.92655347e-01    1.65393559e-01    1.65836845e-01    5.57814843e-01    5.56323789e-01
28       1.13762729e+03    4.94374539e-01    1.65970724e-01    1.66415557e-01    5.59761418e-01    5.58265161e-01
29       1.14287833e+03    4.96095844e-01    1.66548598e-01    1.66994979e-01    5.61710385e-01    5.60208919e-01
30       1.14815362e+03    4.97819224e-01    1.67127168e-01    1.67575101e-01    5.63661703e-01    5.62155021e-01
31       1.15345326e+03    4.99544642e-01    1.67706423e-01    1.68155908e-01    5.65615328e-01    5.64103424e-01
32       1.15877736e+03    5.01272058e-01    1.68286349e-01    1.68737388e-01    5.67571215e-01    5.66054083e-01
33       1.16412603e+03    5.03001434e-01    1.68866933e-01    1.69319528e-01    5.69529321e-01    5.68006955e-01
34       1.16949939e+03    5.04732730e-01    1.69448161e-01    1.69902314e-01    5.71489602e-01    5.69961996e-01
35       1.17489755e+03    5.06465906e-01    1.70030020e-01    1.70485733e-01    5.73452012e-01    5.71919160e-01
36       1.18032064e+03    5.08200923e-01    1.70612498e-01    1.71069772e-01    5.75416505e-01    5.73878402e-01
37       1.18576875e+03    5.09937741e-01    1.71195580e-01    1.71654417e-01    5.77383038e-01    5.75839678e-01
38       1.19124201e+03    5.11676318e-01    1.71779253e-01    1.72239654e-01    5.79351562e-01    5.77802941e-01
39       1.19674053e+03    5.13416615e-01    1.72363502e-01    1.72825469e-01    5.81322033e-01    5.79768145e-01
40       1.20226443e+03    5.15158588e-01    1.72948315e-01    1.73411850e-01    5.83294404e-01    5.81735243e-01
41       1.20781384e+03    5.16902198e-01    1.73533678e-01    1.73998781e-01    5.85268626e-01    5.83704188e-01
42       1.21338885e+03    5.18647402e-01    1.74119575e-01    1.74586249e-01    5.87244654e-01    5.85674934e-01
43       1.21898960e+03    5.20394158e-01    1.74705994e-01    1.75174239e-01    5.89222440e-01    5.87647433e-01
44       1.22461620e+03    5.22142424e-01    1.75292919e-01    1.75762737e-01    5.91201934e-01    5.89621636e-01
45       1.23026877e+03    5.23892156e-01    1.75880337e-01    1.76351729e-01    5.93183089e-01    5.91597496e-01
46       1.23594743e+03    5.25643312e-01    1.76468232e-01    1.76941201e-01    5.95165856e-01    5.93574963e-01
47       1.24165231e+03    5.27395849e-01    1.77056591e-01    1.77531137e-01    5.97150187e-01    5.95553989e-01
48       1.24738351e+03    5.29149723e-01    1.77645399e-01    1.78121523e-01    5.99136031e-01    5.97534525e-01
49       1.25314117e+03    5.30904889e-01    1.78234641e-01    1.78712344e-01    6.01123339e-01    5.99516521e-01
50       1.25892541e+03    5.32661304e-01    1.78824302e-01    1.79303586e-01    6.03112060e-01    6.01499926e-01
51       1.26473635e+03    5.34418923e-01    1.79414368e-01    1.79895232e-01    6.05102146e-01    6.03484692e-01
52       1.27057411e+03    5.36177702e-01    1.80004823e-01    1.80487270e-01    6.07093544e-01    6.05470767e-01
53       1.27643881e+03    5.37937595e-01    1.80595652e-01    1.81079682e-01    6.09086204e-01    6.07458101e-01
54       1.28233058e+03    5.39698558e-01    1.81186839e-01    1.81672454e-01    6.11080074e-01    6.09446641e-01
55       1.28824955e+03    5.41460544e-01    1.81778371e-01    1.82265571e-01    6.13075104e-01    6.11436338e-01
56       1.29419584e+03    5.43223508e-01    1.82370231e-01    1.82859017e-01    6.15071240e-01    6.13427139e-01
57       1.30016958e+03    5.44987403e-01    1.82962403e-01    1.83452777e-01    6.17068432e-01    6.15418992e-01
58       1.30617089e+03    5.46752184e-01    1.83554873e-01    1.84046835e-01    6.19066626e-01    6.17411845e-01
59       1.31219990e+03    5.48517804e-01    1.84147624e-01    1.84641175e-01    6.21065771e-01    6.19405646e-01
60       1.31825674e+03    5.50284217e-01    1.84740642e-01    1.85235782e-01    6.23065812e-01    6.21400341e-01
61       1.32434154e+03    5.52051374e-01    1.85333909e-01    1.85830639e-01    6.25066696e-01    6.23395877e-01
62       1.33045442e+03    5.53819229e-01    1.85927411e-01    1.86425732e-01    6.27068371e-01    6.25392201e-01
63       1.33659552e+03    5.55587734e-01    1.86521131e-01    1.87021043e-01    6.29070782e-01    6.27389260e-01
64       1.34276496e+03    5.57356843e-01    1.87115054e-01    1.87616558e-01    6.31073876e-01    6.29386999e-01
65       1.34896288e+03    5.59126505e-01    1.87709163e-01    1.88212259e-01    6.33077598e-01    6.31385365e-01
66       1.35518941e+03    5.60896675e-01    1.88303441e-01    1.88808130e-01    6.35081893e-01    6.33384303e-01
67       1.36144468e+03    5.62667302e-01    1.88897874e-01    1.89404156e-01    6.37086707e-01    6.35383758e-01
68       1.36772883e+03    5.64438339e-01    1.89492444e-01    1.90000320e-01    6.39091985e-01    6.37383675e-01
69       1.37404198e+03    5.66209737e-01    1.90087135e-01    1.90596605e-01    6.41097671e-01    6.39384000e-01
70       1.38038426e+03    5.67981447e-01    1.90681931e-01    1.91192995e-01    6.43103710e-01    6.41384678e-01
71       1.38675583e+03    5.69753420e-01    1.91276815e-01    1.91789474e-01    6.45110048e-01    6.43385652e-01
72       1.39315680e+03    5.71525606e-01    1.91871771e-01    1.92386024e-01    6.47116626e-01    6.45386867e-01
73       1.39958732e+03    5.73297957e-01    1.92466782e-01    1.92982630e-01    6.49123391e-01    6.47388268e-01
74       1.40604752e+03    5.75070421e-01    1.93061832e-01    1.93579274e-01    6.51130285e-01    6.49389797e-01
75       1.41253754e+03    5.76842950e-01    1.93656902e-01    1.94175940e-01    6.53137252e-01    6.51391399e-01
76       1.41905752e+03    5.78615494e-01    1.94251978e-01    1.94772610e-01    6.55144235e-01    6.53393018e-01
77       1.42560759e+03    5.80388001e-01    1.94847042e-01    1.95369269e-01    6.57151178e-01    6.55394596e-01
78       1.43218790e+03    5.82160423e-01    1.95442077e-01    1.95965899e-01    6.59158024e-01    6.57396077e-01
79       1.43879858e+03    5.83932709e-01    1.96037066e-01    1.96562483e-01    6.61164715e-01    6.59397404e-01
80       1.44543977e+03    5.85704807e-01    1.96631993e-01    1.97159004e-01    6.63171194e-01    6.61398520e-01
81       1.45211162e+03    5.87476668e-01    1.97226839e-01    1.97755444e-01    6.65177404e-01    6.63399368e-01
82       1.45881426e+03    5.89248240e-01    1.97821589e-01    1.98351788e-01    6.67183288e-01    6.65399890e-01
83       1.46554784e+03    5.91019472e-01    1.98416224e-01    1.98948018e-01    6.69188786e-01    6.67400028e-01
84       1.47231250e+03    5.92790314e-01    1.99010729e-01    1.99544116e-01    6.71193843e-01    6.69399725e-01
85       1.47910839e+03    5.94560714e-01    1.99605085e-01    2.00140065e-01    6.73198399e-01    6.71398923e-01
86       1.48593564e+03    5.96330621e-01    2.00199276e-01    2.00735848e-01    6.75202398e-01    6.73397564e-01
87       1.49279441e+03    5.98099983e-01    2.00793284e-01    2.01331448e-01    6.77205779e-01    6.75395591e-01
88       1.49968484e+03    5.99868750e-01    2.01387092e-01    2.01926847e-01    6.79208486e-01    6.77392944e-01
89       1.50660707e+03    6.01636869e-01    2.01980682e-01    2.02522029e-01    6.81210460e-01    6.79389567e-01
90       1.51356125e+03    6.03404289e-01    2.02574038e-01    2.03116975e-01    6.83211642e-01    6.81385399e-01
91       1.52054753e+03    6.05170958e-01    2.03167141e-01    2.03711668e-01    6.85211973e-01    6.83380384e-01
92       1.52756606e+03    6.06936824e-01    2.03759975e-01    2.04306091e-01    6.87211396e-01    6.85374463e-01
93       1.53461698e+03    6.08701836e-01    2.04352523e-01    2.04900226e-01    6.89209852e-01    6.87367576e-01
94       1.54170045e+03    6.10465941e-01    2.04944766e-01    2.05494057e-01    6.91207281e-01    6.89359666e-01
95       1.54881662e+03    6.12229089e-01    2.05536687e-01    2.06087564e-01    6.93203626e-01    6.91350675e-01
96       1.55596563e+03    6.13991226e-01    2.06128269e-01    2.06680732e-01    6.95198826e-01    6.93340542e-01
97       1.56314764e+03    6.15752300e-01    2.06719495e-01    2.07273542e-01    6.97192824e-01    6.95329210e-01
98       1.57036280e+03    6.17512261e-01    2.07310346e-01    2.07865977e-01    6.99185560e-01    6.97316619e-01
99       1.57761127e+03    6.19271055e-01    2.07900806e-01    2.08458020e-01    7.01176976e-01    6.99302712e-01
100      1.58489319e+03    6.21028631e-01    2.08490857e-01    2.09049652e-01    7.03167012e-01    7.01287428e-01
101      1.59220873e+03    6.22784937e-01    2.09080482e-01    2.09640857e-01    7.05155610e-01    7.03270711e-01
102      1.59955803e+03    6.24539920e-01    2.09669662e-01    2.10231616e-01    7.07142710e-01    7.05252499e-01
103      1.60694125e+03    6.26293529e-01    2.10258381e-01    2.10821913e-01    7.09128254e-01    7.07232736e-01
104      1.61435856e+03    6.28045711e-01    2.10846621e-01    2.11411730e-01    7.11112183e-01    7.09211362e-01
105      1.62181010e+03    6.29796415e-01    2.11434365e-01    2.12001049e-01    7.13094438e-01    7.11188319e-01
106      1.62929603e+03    6.31545588e-01    2.12021595e-01    2.12589853e-01    7.15074961e-01    7.13163547e-01
107      1.63681652e+03    6.33293179e-01    2.12608294e-01    2.13178124e-01    7.17053691e-01    7.15136988e-01
108      1.64437172e+03    6.35039136e-01    2.13194444e-01    2.13765846e-01    7.19030571e-01    7.17108584e-01
109      1.65196180e+03    6.36783407e-01    2.13780028e-01    2.14352999e-01    7.21005542e-01    7.19078276e-01
110      1.65958691e+03    6.38525939e-01    2.14365029e-01    2.14939568e-01    7.22978546e-01    7.21046006e-01
111      1.66724721e+03    6.40266682e-01    2.14949429e-01    2.15525534e-01    7.24949523e-01    7.23011714e-01
112      1.67494288e+03    6.42005584e-01    2.15533210e-01    2.16110880e-01    7.26918415e-01    7.24975344e-01
113      1.68267406e+03    6.43742594e-01    2.16116357e-01    2.16695589e-01    7.28885164e-01    7.26936836e-01
114      1.69044093e+03    6.45477659e-01    2.16698850e-01    2.17279644e-01    7.30849712e-01    7.28896132e-01
115      1.69824365e+03    6.47210728e-01    2.17280674e-01    2.17863027e-01    7.32812000e-01    7.30853175e-01
116      1.70608239e+03    6.48941750e-01    2.17861810e-01    2.18445721e-01    7.34771971e-01    7.32807907e-01
117      1.71395731e+03    6.50670675e-01    2.18442242e-01    2.19027709e-01    7.36729566e-01    7.34760269e-01
118      1.72186857e+03    6.52397450e-01    2.19021953e-01    2.19608973e-01    7.38684727e-01    7.36710204e-01
119      1.72981636e+03    6.54122025e-01    2.19600924e-01    2.20189497e-01    7.40637398e-01    7.38657655e-01
120      1.73780083e+03    6.55844349e-01    2.20179141e-01    2.20769263e-01    7.42587520e-01    7.40602564e-01
121      1.74582215e+03    6.57564371e-01    2.20756584e-01    2.21348254e-01    7.44535036e-01    7.42544874e-01
122      1.75388050e+03    6.59282042e-01    2.21333238e-01    2.21926453e-01    7.46479888e-01    7.44484528e-01
123      1.76197605e+03    6.60997310e-01    2.21909086e-01    2.22503844e-01    7.48422021e-01    7.46421470e-01
124      1.77010896e+03    6.62710125e-01    2.22484109e-01    2.23080409e-01    7.50361376e-01    7.48355641e-01
125      1.77827941e+03    6.64420438e-01    2.23058293e-01    2.23656132e-01    7.52297898e-01    7.50286986e-01
126      1.78648757e+03    6.66128197e-01    2.23631620e-01    2.24230995e-01    7.54231529e-01    7.52215449e-01
127      1.79473363e+03    6.67833355e-01    2.24204073e-01    2.24804982e-01    7.56162213e-01    7.54140972e-01
128      1.80301774e+03    6.69535860e-01    2.24775636e-01    2.25378077e-01    7.58089895e-01    7.56063502e-01
129      1.81134009e+03    6.71235664e-01    2.25346291e-01    2.25950262e-01    7.60014519e-01    7.57982980e-01
130      1.81970086e+03    6.72932718e-01    2.25916024e-01    2.26521522e-01    7.61936028e-01    7.59899353e-01
131      1.82810022e+03    6.74626972e-01    2.26484817e-01    2.27091839e-01    7.63854367e-01    7.61812565e-01
132      1.83653834e+03    6.76318379e-01    2.27052653e-01    2.27661197e-01    7.65769482e-01    7.63722561e-01
133      1.84501542e+03    6.78006888e-01    2.27619517e-01    2.28229581e-01    7.67681317e-01    7.65629285e-01
134      1.85353162e+03    6.79692453e-01    2.28185393e-01    2.28796973e-01    7.69589818e-01    7.67532684e-01
135      1.86208714e+03    6.81375025e-01    2.28750263e-01    2.29363357e-01    7.71494929e-01    7.69432704e-01
136      1.87068214e+03    6.83054556e-01    2.29314113e-01    2.29928718e-01    7.73396598e-01    7.71329289e-01
137      1.87931682e+03    6.84730998e-01    2.29876926e-01    2.30493040e-01    7.75294770e-01    7.73222387e-01
138      1.88799135e+03    6.86404305e-01    2.30438686e-01    2.31056306e-01    7.77189391e-01    7.75111944e-01
139      1.89670592e+03    6.88074429e-01    2.30999378e-01    2.31618500e-01    7.79080409e-01    7.76997907e-01
140      1.90546072e+03    6.89741324e-01    2.31558985e-01    2.32179607e-01    7.80967770e-01    7.78880223e-01
141      1.91425593e+03    6.91404942e-01    2.32117493e-01    2.32739612e-01    7.82851422e-01    7.80758840e-01
142      1.92309173e+03    6.93065238e-01    2.32674885e-01    2.33298498e-01    7.84731312e-01    7.82633705e-01
143      1.93196832e+03    6.94722166e-01    2.33231147e-01    2.33856250e-01    7.86607387e-01    7.84504766e-01
144      1.94088588e+03    6.96375679e-01    2.33786262e-01    2.34412853e-01    7.88479598e-01    7.86371972e-01
145      1.94984460e+03    6.98025733e-01    2.34340216e-01    2.34968292e-01    7.90347891e-01    7.88235271e-01
146      1.95884467e+03    6.99672283e-01    2.34892993e-01    2.35522551e-01    7.92212216e-01    7.90094613e-01
147      1.96788629e+03    7.01315283e-01    2.35444579e-01    2.36075615e-01    7.94072522e-01    7.91949946e-01
148      1.97696964e+03    7.02954689e-01    2.35994958e-01    2.36627469e-01    7.95928759e-01    7.93801222e-01
149      1.98609492e+03    7.04590457e-01    2.36544116e-01    2.37178099e-01    7.97780877e-01    7.95648389e-01
150      1.99526231e+03    7.06222544e-01    2.37092037e-01    2.37727489e-01    7.99628827e-01    7.97491398e-01
151      2.00447203e+03    7.07850905e-01    2.37638708e-01    2.38275625e-01    8.01472558e-01    7.99330201e-01
152      2.01372425e+03    7.09475497e-01    2.38184114e-01    2.38822493e-01    8.03312022e-01    8.01164748e-01
153      2.02301918e+03    7.11096278e-01    2.38728241e-01    2.39368078e-01    8.05147170e-01    8.02994991e-01
154      2.03235701e+03    7.12713205e-01    2.39271073e-01    2.39912365e-01    8.06977955e-01    8.04820882e-01
155      2.04173794e+03    7.14326237e-01    2.39812598e-01    2.40455341e-01    8.08804329e-01    8.06642374e-01
156      2.05116218e+03    7.15935330e-01    2.40352800e-01    2.40996991e-01    8.10626244e-01    8.08459419e-01
157      2.06062991e+03    7.17540444e-01    2.40891667e-01    2.41537302e-01    8.12443653e-01    8.10271971e-01
158      2.07014135e+03    7.19141538e-01    2.41429184e-01    2.42076260e-01    8.14256511e-01    8.12079982e-01
159      2.07969669e+03    7.20738571e-01    2.41965338e-01    2.42613851e-01    8.16064770e-01    8.13883408e-01
160      2.08929613e+03    7.22331503e-01    2.42500114e-01    2.43150061e-01    8.17868386e-01    8.15682203e-01
161      2.09893988e+03    7.23920293e-01    2.43033501e-01    2.43684877e-01    8.19667313e-01    8.17476321e-01
162      2.10862815e+03    7.25504903e-01    2.43565484e-01    2.44218286e-01    8.21461506e-01    8.19265718e-01
163      2.11836114e+03    7.27085293e-01    2.44096050e-01    2.44750274e-01    8.23250921e-01    8.21050350e-01
164      2.12813905e+03    7.28661424e-01    2.44625187e-01    2.45280829e-01    8.25035514e-01    8.22830173e-01
165      2.13796209e+03    7.30233259e-01    2.45152881e-01    2.45809937e-01    8.26815242e-01    8.24605144e-01
166      2.14783047e+03    7.31800758e-01    2.45679119e-01    2.46337586e-01    8.28590062e-01    8.26375220e-01
167      2.15774441e+03    7.33363885e-01    2.46203890e-01    2.46863763e-01    8.30359931e-01    8.28140358e-01
168      2.16770410e+03    7.34922602e-01    2.46727181e-01    2.47388456e-01    8.32124807e-01    8.29900516e-01
169      2.17770977e+03    7.36476873e-01    2.47248978e-01    2.47911652e-01    8.33884649e-01    8.31655654e-01
170      2.18776162e+03    7.38026662e-01    2.47769271e-01    2.48433340e-01    8.35639416e-01    8.33405730e-01
171      2.19785987e+03    7.39571932e-01    2.48288047e-01    2.48953506e-01    8.37389066e-01    8.35150704e-01
